
T5A2C 000:003 SEGGER J-Link V6.44g Log File (0001ms, 0004ms total)
T5A2C 000:003 DLL Compiled: Apr 18 2019 17:12:10 (0001ms, 0004ms total)
T5A2C 000:003 Logging started @ 2026-09-26 18:13 (0001ms, 0004ms total)
T5A2C 000:004 JLINK_SetWarnOutHandler(...) (0000ms, 0004ms total)
T5A2C 000:004 JLINK_OpenEx(...)
Firmware: J-Link OB-STM32F072-CortexM compiled Jan  7 2019 14:09:37
Hardware: V1.00
Feature(s): RDI, FlashBP, FlashDL, JFlash, GDB
TELNET listener socket opened on port 19021WEBSRV 
Starting webserver (0016ms, 0020ms total)
T5A2C 000:004 WEBSRV Webserver running on local port 19080 (0016ms, 0020ms total)
T5A2C 000:004   returns O.K. (0016ms, 0020ms total)
T5A2C 000:020 JLINK_GetEmuCaps()  returns 0xB8EA5A33 (0009ms, 0029ms total)
T5A2C 000:029 JLINK_TIF_GetAvailable(...) (0000ms, 0029ms total)
T5A2C 000:029 JLINK_SetErrorOutHandler(...) (0000ms, 0029ms total)
T5A2C 000:029 JLINK_ExecCommand("ProjectFile = "D:\.workspace\STM32_Embedded_Journey\03_Tutorial_Labs\STM32F407_Advanced\01-Ä£¿éÒÆÖ²\JLinkSettings.ini"", ...). Ref file found at: D:\Program Files\keil_v5\ARM\Segger\JLinkDevices.ref (0003ms, 0032ms total)
T5A2C 000:029 REF file references invalid XML file: D:\Program Files (x86)\SEGGER\JLink_V644g\JLinkDevices.xml (0003ms, 0032ms total)
T5A2C 000:029   returns 0x00 (0045ms, 0074ms total)
T5A2C 000:078 JLINK_ExecCommand("Device = STM32F407VGTx", ...). Device "STM32F407VG" selected.  returns 0x00 (0003ms, 0077ms total)
T5A2C 000:081 JLINK_ExecCommand("DisableConnectionTimeout", ...).   returns 0x01 (0000ms, 0077ms total)
T5A2C 000:081 JLINK_GetHardwareVersion()  returns 0x2710 (0000ms, 0077ms total)
T5A2C 000:081 JLINK_GetDLLVersion()  returns 64407 (0000ms, 0077ms total)
T5A2C 000:081 JLINK_GetFirmwareString(...) (0000ms, 0077ms total)
T5A2C 000:087 JLINK_GetDLLVersion()  returns 64407 (0000ms, 0077ms total)
T5A2C 000:087 JLINK_GetCompileDateTime() (0000ms, 0077ms total)
T5A2C 000:089 JLINK_GetFirmwareString(...) (0000ms, 0077ms total)
T5A2C 000:090 JLINK_GetHardwareVersion()  returns 0x2710 (0001ms, 0078ms total)
T5A2C 001:581 JLINK_TIF_Select(JLINKARM_TIF_JTAG)
  ***** Error: Debugger tries to select target interface JTAG.
This interface is not supported by the connected emulator.
Selection will be ignored by the DLL.  returns 0x01 (0001ms, 0079ms total)
T5A2C 001:586 JLINK_SetSpeed(5000) (0000ms, 0079ms total)
T5A2C 001:586 JLINK_GetId() >0x10B TIF>Found SW-DP with ID 0x2BA01477 >0x0D TIF> >0x28 TIF> >0x0D TIF> >0x28 TIF> >0x0D TIF> >0x28 TIF> >0x0D TIF> >0x28 TIF> >0x0D TIF> >0x21 TIF> >0x0D TIF> >0x28 TIF> >0x0D TIF> >0x28 TIF> >0x0D TIF> >0x28 TIF> >0x0D TIF> >0x21 TIF> >0x0D TIF> >0x21 TIF> >0x0D TIF> >0x28 TIF> >0x0D TIF> >0x21 TIF> >0x0D TIF> >0x21 TIF> >0x0D TIF> >0x28 TIF> >0x0D TIF> >0x28 TIF> >0x0D TIF> >0x28 TIF> >0x0D TIF> >0x21 TIF> >0x0D TIF> >0x21 TIF> >0x0D TIF> >0x28 TIF> >0x0D TIF> >0x28 TIF>
 >0x0D TIF> >0x28 TIF> >0x0D TIF> >0x21 TIF> >0x0D TIF> >0x21 TIF> >0x0D TIF> >0x28 TIF> >0x0D TIF> >0x21 TIF> >0x0D TIF> >0x21 TIF> >0x0D TIF> >0x28 TIF> >0x0D TIF> >0x21 TIF> >0x0D TIF> >0x21 TIF> >0x10B TIF>Found SW-DP with ID 0x2BA01477 >0x0D TIF> >0x28 TIF> >0x0D TIF> >0x28 TIF> >0x0D TIF> >0x28 TIF> >0x0D TIF> >0x28 TIF> >0x0D TIF> >0x21 TIF> >0x0D TIF> >0x28 TIF>Scanning AP map to find all available APs >0x0D TIF> >0x28 TIF> >0x0D TIF> >0x21 TIF> >0x0D TIF> >0x21 TIF> >0x0D TIF> >0x28 TIF>
 >0x0D TIF> >0x21 TIF> >0x0D TIF> >0x21 TIF>AP[1]: Stopped AP scan as end of AP map has been reachedAP[0]: AHB-AP (IDR: 0x24770011)Iterating through AP map to find AHB-AP to use >0x42 TIF> >0x28 TIF> >0x0D TIF> >0x28 TIF> >0x0D TIF> >0x21 TIF> >0x0D TIF> >0x21 TIF> >0x42 TIF> >0x28 TIF> >0x0D TIF> >0x28 TIF> >0x0D TIF> >0x28 TIF> >0x0D TIF> >0x21 TIF> >0x0D TIF> >0x21 TIF>AP[0]: Core foundAP[0]: AHB-AP ROM base: 0xE00FF000 >0x0D TIF> >0x28 TIF> >0x0D TIF> >0x28 TIF> >0x0D TIF> >0x28 TIF> >0x0D TIF>
 >0x21 TIF> >0x0D TIF> >0x21 TIF>CPUID register: 0x410FC241. Implementer code: 0x41 (ARM)Found Cortex-M4 r0p1, Little endian. -- Max. mem block: 0x00002290 -- CPU_ReadMem(4 bytes @ 0xE000EDF0) -- CPU_WriteMem(4 bytes @ 0xE000EDF0) -- CPU_ReadMem(4 bytes @ 0xE0002000)FPUnit: 6 code (BP) slots and 2 literal slots -- CPU_ReadMem(4 bytes @ 0xE000EDFC) -- CPU_WriteMem(4 bytes @ 0xE000EDFC) -- CPU_ReadMem(4 bytes @ 0xE0001000) -- CPU_WriteMem(4 bytes @ 0xE0001000) -- CPU_ReadMem(4 bytes @ 0xE000ED88)
 -- CPU_WriteMem(4 bytes @ 0xE000ED88) -- CPU_ReadMem(4 bytes @ 0xE000ED88) -- CPU_WriteMem(4 bytes @ 0xE000ED88)CoreSight components:ROMTbl[0] @ E00FF000 -- CPU_ReadMem(16 bytes @ 0xE00FF000) -- CPU_ReadMem(16 bytes @ 0xE000EFF0) -- CPU_ReadMem(16 bytes @ 0xE000EFE0)ROMTbl[0][0]: E000E000, CID: B105E00D, PID: 000BB00C SCS-M7 -- CPU_ReadMem(16 bytes @ 0xE0001FF0) -- CPU_ReadMem(16 bytes @ 0xE0001FE0)ROMTbl[0][1]: E0001000, CID: B105E00D, PID: 003BB002 DWT -- CPU_ReadMem(16 bytes @ 0xE0002FF0)
 -- CPU_ReadMem(16 bytes @ 0xE0002FE0)ROMTbl[0][2]: E0002000, CID: B105E00D, PID: 002BB003 FPB -- CPU_ReadMem(16 bytes @ 0xE0000FF0) -- CPU_ReadMem(16 bytes @ 0xE0000FE0)ROMTbl[0][3]: E0000000, CID: B105E00D, PID: 003BB001 ITM -- CPU_ReadMem(16 bytes @ 0xE00FF010) -- CPU_ReadMem(16 bytes @ 0xE0040FF0) -- CPU_ReadMem(16 bytes @ 0xE0040FE0)ROMTbl[0][4]: E0040000, CID: B105900D, PID: 000BB9A1 TPIU -- CPU_ReadMem(16 bytes @ 0xE0041FF0) -- CPU_ReadMem(16 bytes @ 0xE0041FE0)
ROMTbl[0][5]: E0041000, CID: B105900D, PID: 000BB925 ETM >0x0D TIF> >0x21 TIF>  returns 0x2BA01477 (0218ms, 0297ms total)
T5A2C 001:804 JLINK_GetDLLVersion()  returns 64407 (0000ms, 0297ms total)
T5A2C 001:804 JLINK_CORE_GetFound()  returns 0xE0000FF (0000ms, 0297ms total)
T5A2C 001:804 JLINK_GetDebugInfo(0x100 = JLINKARM_ROM_TABLE_ADDR_INDEX) -- Value=0xE00FF000  returns 0x00 (0000ms, 0297ms total)
T5A2C 001:805 JLINK_GetDebugInfo(0x100 = JLINKARM_ROM_TABLE_ADDR_INDEX) -- Value=0xE00FF000  returns 0x00 (0000ms, 0297ms total)
T5A2C 001:805 JLINK_GetDebugInfo(0x101 = JLINKARM_DEBUG_INFO_ETM_ADDR_INDEX) -- Value=0xE0041000  returns 0x00 (0000ms, 0297ms total)
T5A2C 001:805 JLINK_ReadMemEx(0xE0041FD0, 0x0020 Bytes, ..., Flags = 0x02000004) -- CPU_ReadMem(32 bytes @ 0xE0041FD0) - Data: 04 00 00 00 00 00 00 00 00 00 00 00 00 00 00 00 ...  returns 0x20 (0001ms, 0298ms total)
T5A2C 001:806 JLINK_GetDebugInfo(0x102 = JLINKARM_DEBUG_INFO_MTB_ADDR_INDEX) -- Value=0x00000000  returns 0x00 (0000ms, 0298ms total)
T5A2C 001:806 JLINK_GetDebugInfo(0x103 = JLINKARM_DEBUG_INFO_TPIU_ADDR_INDEX) -- Value=0xE0040000  returns 0x00 (0000ms, 0298ms total)
T5A2C 001:807 JLINK_GetDebugInfo(0x104 = JLINKARM_DEBUG_INFO_ITM_ADDR_INDEX) -- Value=0xE0000000  returns 0x00 (0000ms, 0299ms total)
T5A2C 001:807 JLINK_GetDebugInfo(0x105 = JLINKARM_DEBUG_INFO_DWT_ADDR_INDEX) -- Value=0xE0001000  returns 0x00 (0000ms, 0299ms total)
T5A2C 001:807 JLINK_GetDebugInfo(0x106 = JLINKARM_DEBUG_INFO_FPB_ADDR_INDEX) -- Value=0xE0002000  returns 0x00 (0000ms, 0299ms total)
T5A2C 001:807 JLINK_GetDebugInfo(0x107 = JLINKARM_DEBUG_INFO_NVIC_ADDR_INDEX) -- Value=0xE000E000  returns 0x00 (0000ms, 0299ms total)
T5A2C 001:807 JLINK_GetDebugInfo(0x10C = JLINKARM_DEBUG_INFO_DBG_ADDR_INDEX) -- Value=0xE000EDF0  returns 0x00 (0000ms, 0299ms total)
T5A2C 001:807 JLINK_ReadMemU32(0xE000EF40, 0x0001 Items, ...) -- CPU_ReadMem(4 bytes @ 0xE000EF40) - Data: 21 00 11 10  returns 1 (0000ms, 0299ms total)
T5A2C 001:807 JLINK_ReadMemU32(0xE000EF44, 0x0001 Items, ...) -- CPU_ReadMem(4 bytes @ 0xE000EF44) - Data: 11 00 00 11  returns 1 (0001ms, 0300ms total)
T5A2C 001:808 JLINK_ReadMemU32(0xE000ED00, 0x0001 Items, ...) -- CPU_ReadMem(4 bytes @ 0xE000ED00) - Data: 41 C2 0F 41  returns 1 (0000ms, 0300ms total)
T5A2C 001:808 JLINK_GetDebugInfo(0x10F = JLINKARM_DEBUG_INFO_HAS_CORTEX_M_SECURITY_EXT_INDEX) -- Value=0x00000000  returns 0x00 (0000ms, 0300ms total)
T5A2C 001:808 JLINK_SetResetType(JLINKARM_CM3_RESET_TYPE_NORMAL)  returns JLINKARM_CM3_RESET_TYPE_NORMAL (0000ms, 0300ms total)
T5A2C 001:808 JLINK_Reset() -- CPU is running -- CPU_WriteMem(4 bytes @ 0xE000EDF0) -- CPU is running -- CPU_WriteMem(4 bytes @ 0xE000EDFC)Reset: Halt core after reset via DEMCR.VC_CORERESET. >0x35 TIF>Reset: Reset device via AIRCR.SYSRESETREQ. -- CPU is running -- CPU_WriteMem(4 bytes @ 0xE000ED0C) >0x0D TIF> >0x28 TIF> -- CPU_ReadMem(4 bytes @ 0xE000EDF0) -- CPU_ReadMem(4 bytes @ 0xE000EDF0) -- CPU is running -- CPU_WriteMem(4 bytes @ 0xE000EDF0) -- CPU is running -- CPU_WriteMem(4 bytes @ 0xE000EDFC)
 -- CPU_ReadMem(4 bytes @ 0xE000EDF0) -- CPU_WriteMem(4 bytes @ 0xE0002000) -- CPU_ReadMem(4 bytes @ 0xE000EDFC) -- CPU_ReadMem(4 bytes @ 0xE0001000) (0074ms, 0374ms total)
T5A2C 001:882 JLINK_Halt()  returns 0x00 (0000ms, 0374ms total)
T5A2C 001:882 JLINK_ReadMemU32(0xE000EDF0, 0x0001 Items, ...) -- CPU_ReadMem(4 bytes @ 0xE000EDF0) - Data: 03 00 03 00  returns 1 (0002ms, 0376ms total)
T5A2C 001:884 JLINK_WriteU32(0xE000EDF0, 0xA05F0003) -- CPU_WriteMem(4 bytes @ 0xE000EDF0)  returns 0 (0001ms, 0377ms total)
T5A2C 001:885 JLINK_WriteU32(0xE000EDFC, 0x01000000) -- CPU_WriteMem(4 bytes @ 0xE000EDFC)  returns 0 (0000ms, 0377ms total)
T5A2C 001:892 JLINK_GetHWStatus(...)  returns 0x00 (0000ms, 0377ms total)
T5A2C 001:897 JLINK_GetNumBPUnits(Type = 0xFFFFFF00)  returns 0x06 (0000ms, 0377ms total)
T5A2C 001:897 JLINK_GetNumBPUnits(Type = 0xF0)  returns 0x2000 (0000ms, 0377ms total)
T5A2C 001:897 JLINK_GetNumWPUnits()  returns 0x04 (0000ms, 0377ms total)
T5A2C 001:902 JLINK_GetSpeed()  returns 0x7D0 (0000ms, 0377ms total)
T5A2C 001:906 JLINK_ReadMemU32(0xE000E004, 0x0001 Items, ...) -- CPU_ReadMem(4 bytes @ 0xE000E004) - Data: 02 00 00 00  returns 1 (0000ms, 0377ms total)
T5A2C 001:906 JLINK_ReadMemU32(0xE000E004, 0x0001 Items, ...) -- CPU_ReadMem(4 bytes @ 0xE000E004) - Data: 02 00 00 00  returns 1 (0001ms, 0378ms total)
T5A2C 001:907 JLINK_WriteMemEx(0xE0001000, 0x001C Bytes, ..., Flags = 0x02000004) - Data: 01 00 00 00 00 00 00 00 00 00 00 00 00 00 00 00 ... -- CPU_WriteMem(28 bytes @ 0xE0001000)  returns 0x1C (0001ms, 0379ms total)
T5A2C 001:908 JLINK_Halt()  returns 0x00 (0000ms, 0379ms total)
T5A2C 001:908 JLINK_IsHalted()  returns TRUE (0001ms, 0380ms total)
T5A2C 001:911 JLINK_WriteMem(0x20000000, 0x0180 Bytes, ...) - Data: 00 BE 0A E0 0D 78 2D 06 68 40 08 24 40 00 00 D3 ... -- CPU_WriteMem(384 bytes @ 0x20000000)  returns 0x180 (0005ms, 0384ms total)
T5A2C 001:916 JLINK_WriteReg(R0, 0x08000000)  returns 0x00 (0000ms, 0384ms total)
T5A2C 001:916 JLINK_WriteReg(R1, 0x00B71B00)  returns 0x00 (0000ms, 0384ms total)
T5A2C 001:916 JLINK_WriteReg(R2, 0x00000001)  returns 0x00 (0000ms, 0384ms total)
T5A2C 001:916 JLINK_WriteReg(R3, 0x00000000)  returns 0x00 (0000ms, 0384ms total)
T5A2C 001:916 JLINK_WriteReg(R4, 0x00000000)  returns 0x00 (0000ms, 0384ms total)
T5A2C 001:916 JLINK_WriteReg(R5, 0x00000000)  returns 0x00 (0000ms, 0384ms total)
T5A2C 001:916 JLINK_WriteReg(R6, 0x00000000)  returns 0x00 (0000ms, 0384ms total)
T5A2C 001:916 JLINK_WriteReg(R7, 0x00000000)  returns 0x00 (0000ms, 0384ms total)
T5A2C 001:916 JLINK_WriteReg(R8, 0x00000000)  returns 0x00 (0000ms, 0384ms total)
T5A2C 001:916 JLINK_WriteReg(R9, 0x2000017C)  returns 0x00 (0000ms, 0384ms total)
T5A2C 001:916 JLINK_WriteReg(R10, 0x00000000)  returns 0x00 (0000ms, 0384ms total)
T5A2C 001:916 JLINK_WriteReg(R11, 0x00000000)  returns 0x00 (0000ms, 0384ms total)
T5A2C 001:916 JLINK_WriteReg(R12, 0x00000000)  returns 0x00 (0000ms, 0384ms total)
T5A2C 001:916 JLINK_WriteReg(R13 (SP), 0x20001000)  returns 0x00 (0000ms, 0384ms total)
T5A2C 001:916 JLINK_WriteReg(R14, 0x20000001)  returns 0x00 (0000ms, 0384ms total)
T5A2C 001:916 JLINK_WriteReg(R15 (PC), 0x20000054)  returns 0x00 (0000ms, 0384ms total)
T5A2C 001:916 JLINK_WriteReg(XPSR, 0x01000000)  returns 0x00 (0000ms, 0384ms total)
T5A2C 001:916 JLINK_WriteReg(MSP, 0x20001000)  returns 0x00 (0000ms, 0384ms total)
T5A2C 001:916 JLINK_WriteReg(PSP, 0x20001000)  returns 0x00 (0000ms, 0384ms total)
T5A2C 001:916 JLINK_WriteReg(CFBP, 0x00000000)  returns 0x00 (0000ms, 0384ms total)
T5A2C 001:916 JLINK_SetBPEx(Addr = 0x20000000, Type = 0xFFFFFFF2) -- CPU_ReadMem(2 bytes @ 0x20000000)  returns 0x00000001 (0001ms, 0385ms total)
T5A2C 001:917 JLINK_Go() -- CPU_WriteMem(2 bytes @ 0x20000000) -- CPU_ReadMem(4 bytes @ 0xE0001000) -- CPU_WriteMem(4 bytes @ 0xE0002008) -- CPU_WriteMem(4 bytes @ 0xE000200C) -- CPU_WriteMem(4 bytes @ 0xE0002010) -- CPU_WriteMem(4 bytes @ 0xE0002014) -- CPU_WriteMem(4 bytes @ 0xE0002018) -- CPU_WriteMem(4 bytes @ 0xE000201C) -- CPU_WriteMem(4 bytes @ 0xE0001004) (0009ms, 0394ms total)
T5A2C 001:926 JLINK_IsHalted() -- CPU_ReadMem(2 bytes @ 0x20000000)  returns TRUE (0006ms, 0400ms total)
T5A2C 001:932 JLINK_ReadReg(R15 (PC))  returns 0x20000000 (0000ms, 0394ms total)
T5A2C 001:932 JLINK_ClrBPEx(BPHandle = 0x00000001)  returns 0x00 (0000ms, 0394ms total)
T5A2C 001:932 JLINK_ReadReg(R0)  returns 0x00000000 (0000ms, 0394ms total)
T5A2C 001:932 JLINK_WriteReg(R0, 0x08000000)  returns 0x00 (0000ms, 0394ms total)
T5A2C 001:932 JLINK_WriteReg(R1, 0x00004000)  returns 0x00 (0001ms, 0395ms total)
T5A2C 001:933 JLINK_WriteReg(R2, 0x000000FF)  returns 0x00 (0000ms, 0395ms total)
T5A2C 001:933 JLINK_WriteReg(R3, 0x00000000)  returns 0x00 (0000ms, 0395ms total)
T5A2C 001:933 JLINK_WriteReg(R4, 0x00000000)  returns 0x00 (0000ms, 0395ms total)
T5A2C 001:933 JLINK_WriteReg(R5, 0x00000000)  returns 0x00 (0000ms, 0395ms total)
T5A2C 001:933 JLINK_WriteReg(R6, 0x00000000)  returns 0x00 (0000ms, 0395ms total)
T5A2C 001:933 JLINK_WriteReg(R7, 0x00000000)  returns 0x00 (0000ms, 0395ms total)
T5A2C 001:933 JLINK_WriteReg(R8, 0x00000000)  returns 0x00 (0000ms, 0395ms total)
T5A2C 001:933 JLINK_WriteReg(R9, 0x2000017C)  returns 0x00 (0000ms, 0395ms total)
T5A2C 001:933 JLINK_WriteReg(R10, 0x00000000)  returns 0x00 (0000ms, 0395ms total)
T5A2C 001:933 JLINK_WriteReg(R11, 0x00000000)  returns 0x00 (0000ms, 0395ms total)
T5A2C 001:933 JLINK_WriteReg(R12, 0x00000000)  returns 0x00 (0000ms, 0395ms total)
T5A2C 001:933 JLINK_WriteReg(R13 (SP), 0x20001000)  returns 0x00 (0000ms, 0395ms total)
T5A2C 001:933 JLINK_WriteReg(R14, 0x20000001)  returns 0x00 (0000ms, 0395ms total)
T5A2C 001:933 JLINK_WriteReg(R15 (PC), 0x20000020)  returns 0x00 (0000ms, 0395ms total)
T5A2C 001:933 JLINK_WriteReg(XPSR, 0x01000000)  returns 0x00 (0000ms, 0395ms total)
T5A2C 001:933 JLINK_WriteReg(MSP, 0x20001000)  returns 0x00 (0000ms, 0395ms total)
T5A2C 001:933 JLINK_WriteReg(PSP, 0x20001000)  returns 0x00 (0000ms, 0395ms total)
T5A2C 001:933 JLINK_WriteReg(CFBP, 0x00000000)  returns 0x00 (0000ms, 0395ms total)
T5A2C 001:933 JLINK_SetBPEx(Addr = 0x20000000, Type = 0xFFFFFFF2)  returns 0x00000002 (0000ms, 0395ms total)
T5A2C 001:933 JLINK_Go() -- CPU_ReadMem(4 bytes @ 0xE0001000) (0005ms, 0400ms total)
T5A2C 001:938 JLINK_IsHalted() -- CPU_ReadMem(2 bytes @ 0x20000000)  returns TRUE (0006ms, 0406ms total)
T5A2C 001:944 JLINK_ReadReg(R15 (PC))  returns 0x20000000 (0000ms, 0400ms total)
T5A2C 001:944 JLINK_ClrBPEx(BPHandle = 0x00000002)  returns 0x00 (0000ms, 0400ms total)
T5A2C 001:944 JLINK_ReadReg(R0)  returns 0x00000001 (0000ms, 0400ms total)
T5A2C 001:944 JLINK_WriteReg(R0, 0x08000000)  returns 0x00 (0000ms, 0400ms total)
T5A2C 001:944 JLINK_WriteReg(R1, 0x00004000)  returns 0x00 (0000ms, 0400ms total)
T5A2C 001:944 JLINK_WriteReg(R2, 0x000000FF)  returns 0x00 (0000ms, 0400ms total)
T5A2C 001:944 JLINK_WriteReg(R3, 0x00000000)  returns 0x00 (0000ms, 0400ms total)
T5A2C 001:944 JLINK_WriteReg(R4, 0x00000000)  returns 0x00 (0000ms, 0400ms total)
T5A2C 001:944 JLINK_WriteReg(R5, 0x00000000)  returns 0x00 (0000ms, 0400ms total)
T5A2C 001:944 JLINK_WriteReg(R6, 0x00000000)  returns 0x00 (0000ms, 0400ms total)
T5A2C 001:944 JLINK_WriteReg(R7, 0x00000000)  returns 0x00 (0000ms, 0400ms total)
T5A2C 001:944 JLINK_WriteReg(R8, 0x00000000)  returns 0x00 (0000ms, 0400ms total)
T5A2C 001:944 JLINK_WriteReg(R9, 0x2000017C)  returns 0x00 (0000ms, 0400ms total)
T5A2C 001:944 JLINK_WriteReg(R10, 0x00000000)  returns 0x00 (0000ms, 0400ms total)
T5A2C 001:944 JLINK_WriteReg(R11, 0x00000000)  returns 0x00 (0000ms, 0400ms total)
T5A2C 001:944 JLINK_WriteReg(R12, 0x00000000)  returns 0x00 (0000ms, 0400ms total)
T5A2C 001:944 JLINK_WriteReg(R13 (SP), 0x20001000)  returns 0x00 (0000ms, 0400ms total)
T5A2C 001:944 JLINK_WriteReg(R14, 0x20000001)  returns 0x00 (0000ms, 0400ms total)
T5A2C 001:944 JLINK_WriteReg(R15 (PC), 0x200000BC)  returns 0x00 (0000ms, 0400ms total)
T5A2C 001:944 JLINK_WriteReg(XPSR, 0x01000000)  returns 0x00 (0000ms, 0400ms total)
T5A2C 001:944 JLINK_WriteReg(MSP, 0x20001000)  returns 0x00 (0000ms, 0400ms total)
T5A2C 001:944 JLINK_WriteReg(PSP, 0x20001000)  returns 0x00 (0000ms, 0400ms total)
T5A2C 001:944 JLINK_WriteReg(CFBP, 0x00000000)  returns 0x00 (0000ms, 0400ms total)
T5A2C 001:944 JLINK_SetBPEx(Addr = 0x20000000, Type = 0xFFFFFFF2)  returns 0x00000003 (0000ms, 0400ms total)
T5A2C 001:944 JLINK_Go() -- CPU_ReadMem(4 bytes @ 0xE0001000) (0006ms, 0406ms total)
T5A2C 001:950 JLINK_IsHalted()  returns FALSE (0001ms, 0407ms total)
T5A2C 001:969 JLINK_IsHalted()  returns FALSE (0000ms, 0406ms total)
T5A2C 001:973 JLINK_IsHalted()  returns FALSE (0000ms, 0406ms total)
T5A2C 001:975 JLINK_IsHalted()  returns FALSE (0000ms, 0406ms total)
T5A2C 001:978 JLINK_IsHalted()  returns FALSE (0000ms, 0406ms total)
T5A2C 001:980 JLINK_IsHalted()  returns FALSE (0000ms, 0406ms total)
T5A2C 001:983 JLINK_IsHalted()  returns FALSE (0000ms, 0406ms total)
T5A2C 001:985 JLINK_IsHalted()  returns FALSE (0000ms, 0406ms total)
T5A2C 001:987 JLINK_IsHalted()  returns FALSE (0000ms, 0406ms total)
T5A2C 001:990 JLINK_IsHalted()  returns FALSE (0000ms, 0406ms total)
T5A2C 001:994 JLINK_IsHalted()  returns FALSE (0000ms, 0406ms total)
T5A2C 001:997 JLINK_IsHalted()  returns FALSE (0000ms, 0406ms total)
T5A2C 001:999 JLINK_IsHalted()  returns FALSE (0000ms, 0406ms total)
T5A2C 002:001 JLINK_IsHalted()  returns FALSE (0000ms, 0406ms total)
T5A2C 002:003 JLINK_IsHalted()  returns FALSE (0000ms, 0406ms total)
T5A2C 002:005 JLINK_IsHalted()  returns FALSE (0000ms, 0406ms total)
T5A2C 002:007 JLINK_IsHalted()  returns FALSE (0000ms, 0406ms total)
T5A2C 002:009 JLINK_IsHalted()  returns FALSE (0000ms, 0406ms total)
T5A2C 002:011 JLINK_IsHalted()  returns FALSE (0000ms, 0406ms total)
T5A2C 002:013 JLINK_IsHalted()  returns FALSE (0000ms, 0406ms total)
T5A2C 002:018 JLINK_IsHalted()  returns FALSE (0000ms, 0406ms total)
T5A2C 002:022 JLINK_IsHalted()  returns FALSE (0000ms, 0406ms total)
T5A2C 002:025 JLINK_IsHalted()  returns FALSE (0001ms, 0407ms total)
T5A2C 002:030 JLINK_IsHalted()  returns FALSE (0000ms, 0406ms total)
T5A2C 002:032 JLINK_IsHalted()  returns FALSE (0000ms, 0406ms total)
T5A2C 002:035 JLINK_IsHalted()  returns FALSE (0000ms, 0406ms total)
T5A2C 002:038 JLINK_IsHalted()  returns FALSE (0000ms, 0406ms total)
T5A2C 002:041 JLINK_IsHalted()  returns FALSE (0000ms, 0406ms total)
T5A2C 002:045 JLINK_IsHalted()  returns FALSE (0001ms, 0407ms total)
T5A2C 002:049 JLINK_IsHalted()  returns FALSE (0000ms, 0406ms total)
T5A2C 002:052 JLINK_IsHalted()  returns FALSE (0000ms, 0406ms total)
T5A2C 002:055 JLINK_IsHalted()  returns FALSE (0000ms, 0406ms total)
T5A2C 002:058 JLINK_IsHalted()  returns FALSE (0000ms, 0406ms total)
T5A2C 002:061 JLINK_IsHalted()  returns FALSE (0000ms, 0406ms total)
T5A2C 002:064 JLINK_IsHalted()  returns FALSE (0000ms, 0406ms total)
T5A2C 002:069 JLINK_IsHalted()  returns FALSE (0000ms, 0406ms total)
T5A2C 002:073 JLINK_IsHalted()  returns FALSE (0000ms, 0406ms total)
T5A2C 002:076 JLINK_IsHalted()  returns FALSE (0000ms, 0406ms total)
T5A2C 002:079 JLINK_IsHalted()  returns FALSE (0000ms, 0406ms total)
T5A2C 002:083 JLINK_IsHalted()  returns FALSE (0000ms, 0406ms total)
T5A2C 002:088 JLINK_IsHalted()  returns FALSE (0000ms, 0406ms total)
T5A2C 002:091 JLINK_IsHalted()  returns FALSE (0000ms, 0406ms total)
T5A2C 002:094 JLINK_IsHalted()  returns FALSE (0000ms, 0406ms total)
T5A2C 002:096 JLINK_IsHalted()  returns FALSE (0000ms, 0406ms total)
T5A2C 002:100 JLINK_IsHalted()  returns FALSE (0001ms, 0407ms total)
T5A2C 002:103 JLINK_IsHalted()  returns FALSE (0000ms, 0406ms total)
T5A2C 002:106 JLINK_IsHalted()  returns FALSE (0001ms, 0407ms total)
T5A2C 002:109 JLINK_IsHalted()  returns FALSE (0000ms, 0406ms total)
T5A2C 002:112 JLINK_IsHalted()  returns FALSE (0000ms, 0406ms total)
T5A2C 002:115 JLINK_IsHalted()  returns FALSE (0000ms, 0406ms total)
T5A2C 002:118 JLINK_IsHalted()  returns FALSE (0000ms, 0406ms total)
T5A2C 002:121 JLINK_IsHalted()  returns FALSE (0000ms, 0406ms total)
T5A2C 002:124 JLINK_IsHalted()  returns FALSE (0000ms, 0406ms total)
T5A2C 002:126 JLINK_IsHalted()  returns FALSE (0000ms, 0406ms total)
T5A2C 002:131 JLINK_IsHalted()  returns FALSE (0000ms, 0406ms total)
T5A2C 002:134 JLINK_IsHalted()  returns FALSE (0001ms, 0407ms total)
T5A2C 002:138 JLINK_IsHalted()  returns FALSE (0000ms, 0406ms total)
T5A2C 002:141 JLINK_IsHalted()  returns FALSE (0000ms, 0406ms total)
T5A2C 002:143 JLINK_IsHalted()  returns FALSE (0000ms, 0406ms total)
T5A2C 002:146 JLINK_IsHalted()  returns FALSE (0001ms, 0407ms total)
T5A2C 002:150 JLINK_IsHalted()  returns FALSE (0000ms, 0406ms total)
T5A2C 002:154 JLINK_IsHalted()  returns FALSE (0000ms, 0406ms total)
T5A2C 002:156 JLINK_IsHalted()  returns FALSE (0000ms, 0406ms total)
T5A2C 002:159 JLINK_IsHalted()  returns FALSE (0000ms, 0406ms total)
T5A2C 002:161 JLINK_IsHalted()  returns FALSE (0000ms, 0406ms total)
T5A2C 002:164 JLINK_IsHalted()  returns FALSE (0000ms, 0406ms total)
T5A2C 002:167 JLINK_IsHalted()  returns FALSE (0000ms, 0406ms total)
T5A2C 002:169 JLINK_IsHalted()  returns FALSE (0000ms, 0406ms total)
T5A2C 002:172 JLINK_IsHalted()  returns FALSE (0001ms, 0407ms total)
T5A2C 002:175 JLINK_IsHalted()  returns FALSE (0000ms, 0406ms total)
T5A2C 002:177 JLINK_IsHalted()  returns FALSE (0000ms, 0406ms total)
T5A2C 002:180 JLINK_IsHalted()  returns FALSE (0000ms, 0406ms total)
T5A2C 002:182 JLINK_IsHalted()  returns FALSE (0000ms, 0406ms total)
T5A2C 002:184 JLINK_IsHalted()  returns FALSE (0000ms, 0406ms total)
T5A2C 002:186 JLINK_IsHalted()  returns FALSE (0000ms, 0406ms total)
T5A2C 002:189 JLINK_IsHalted()  returns FALSE (0001ms, 0407ms total)
T5A2C 002:192 JLINK_IsHalted()  returns FALSE (0000ms, 0406ms total)
T5A2C 002:195 JLINK_IsHalted()  returns FALSE (0000ms, 0406ms total)
T5A2C 002:199 JLINK_IsHalted()  returns FALSE (0000ms, 0406ms total)
T5A2C 002:201 JLINK_IsHalted()  returns FALSE (0000ms, 0406ms total)
T5A2C 002:203 JLINK_IsHalted()  returns FALSE (0000ms, 0406ms total)
T5A2C 002:205 JLINK_IsHalted()  returns FALSE (0000ms, 0406ms total)
T5A2C 002:208 JLINK_IsHalted()  returns FALSE (0000ms, 0406ms total)
T5A2C 002:211 JLINK_IsHalted()  returns FALSE (0000ms, 0406ms total)
T5A2C 002:214 JLINK_IsHalted()  returns FALSE (0000ms, 0406ms total)
T5A2C 002:216 JLINK_IsHalted()  returns FALSE (0000ms, 0406ms total)
T5A2C 002:218 JLINK_IsHalted()  returns FALSE (0000ms, 0406ms total)
T5A2C 002:220 JLINK_IsHalted()  returns FALSE (0000ms, 0406ms total)
T5A2C 002:222 JLINK_IsHalted()  returns FALSE (0000ms, 0406ms total)
T5A2C 002:226 JLINK_IsHalted()  returns FALSE (0000ms, 0406ms total)
T5A2C 002:228 JLINK_IsHalted()  returns FALSE (0000ms, 0406ms total)
T5A2C 002:231 JLINK_IsHalted()  returns FALSE (0000ms, 0406ms total)
T5A2C 002:233 JLINK_IsHalted()  returns FALSE (0001ms, 0407ms total)
T5A2C 002:237 JLINK_IsHalted()  returns FALSE (0000ms, 0406ms total)
T5A2C 002:240 JLINK_IsHalted()  returns FALSE (0000ms, 0406ms total)
T5A2C 002:243 JLINK_IsHalted()  returns FALSE (0000ms, 0406ms total)
T5A2C 002:245 JLINK_IsHalted()  returns FALSE (0000ms, 0406ms total)
T5A2C 002:247 JLINK_IsHalted()  returns FALSE (0000ms, 0406ms total)
T5A2C 002:250 JLINK_IsHalted()  returns FALSE (0000ms, 0406ms total)
T5A2C 002:253 JLINK_IsHalted()  returns FALSE (0000ms, 0406ms total)
T5A2C 002:256 JLINK_IsHalted()  returns FALSE (0000ms, 0406ms total)
T5A2C 002:259 JLINK_IsHalted()  returns FALSE (0000ms, 0406ms total)
T5A2C 002:262 JLINK_IsHalted()  returns FALSE (0000ms, 0406ms total)
T5A2C 002:264 JLINK_IsHalted()  returns FALSE (0000ms, 0406ms total)
T5A2C 002:267 JLINK_IsHalted()  returns FALSE (0000ms, 0406ms total)
T5A2C 002:271 JLINK_IsHalted() -- CPU_ReadMem(2 bytes @ 0x20000000)  returns TRUE (0005ms, 0411ms total)
T5A2C 002:276 JLINK_ReadReg(R15 (PC))  returns 0x20000000 (0000ms, 0406ms total)
T5A2C 002:276 JLINK_ClrBPEx(BPHandle = 0x00000003)  returns 0x00 (0000ms, 0406ms total)
T5A2C 002:276 JLINK_ReadReg(R0)  returns 0x00000000 (0000ms, 0406ms total)
T5A2C 002:276 JLINK_WriteReg(R0, 0x00000001)  returns 0x00 (0000ms, 0406ms total)
T5A2C 002:277 JLINK_WriteReg(R1, 0x00004000)  returns 0x00 (0000ms, 0406ms total)
T5A2C 002:277 JLINK_WriteReg(R2, 0x000000FF)  returns 0x00 (0000ms, 0406ms total)
T5A2C 002:277 JLINK_WriteReg(R3, 0x00000000)  returns 0x00 (0000ms, 0406ms total)
T5A2C 002:277 JLINK_WriteReg(R4, 0x00000000)  returns 0x00 (0000ms, 0406ms total)
T5A2C 002:277 JLINK_WriteReg(R5, 0x00000000)  returns 0x00 (0000ms, 0406ms total)
T5A2C 002:277 JLINK_WriteReg(R6, 0x00000000)  returns 0x00 (0000ms, 0406ms total)
T5A2C 002:277 JLINK_WriteReg(R7, 0x00000000)  returns 0x00 (0000ms, 0406ms total)
T5A2C 002:277 JLINK_WriteReg(R8, 0x00000000)  returns 0x00 (0000ms, 0406ms total)
T5A2C 002:277 JLINK_WriteReg(R9, 0x2000017C)  returns 0x00 (0000ms, 0406ms total)
T5A2C 002:277 JLINK_WriteReg(R10, 0x00000000)  returns 0x00 (0000ms, 0406ms total)
T5A2C 002:277 JLINK_WriteReg(R11, 0x00000000)  returns 0x00 (0000ms, 0406ms total)
T5A2C 002:277 JLINK_WriteReg(R12, 0x00000000)  returns 0x00 (0000ms, 0406ms total)
T5A2C 002:277 JLINK_WriteReg(R13 (SP), 0x20001000)  returns 0x00 (0000ms, 0406ms total)
T5A2C 002:277 JLINK_WriteReg(R14, 0x20000001)  returns 0x00 (0000ms, 0406ms total)
T5A2C 002:277 JLINK_WriteReg(R15 (PC), 0x20000082)  returns 0x00 (0000ms, 0406ms total)
T5A2C 002:277 JLINK_WriteReg(XPSR, 0x01000000)  returns 0x00 (0000ms, 0406ms total)
T5A2C 002:277 JLINK_WriteReg(MSP, 0x20001000)  returns 0x00 (0000ms, 0406ms total)
T5A2C 002:277 JLINK_WriteReg(PSP, 0x20001000)  returns 0x00 (0000ms, 0406ms total)
T5A2C 002:277 JLINK_WriteReg(CFBP, 0x00000000)  returns 0x00 (0000ms, 0406ms total)
T5A2C 002:277 JLINK_SetBPEx(Addr = 0x20000000, Type = 0xFFFFFFF2)  returns 0x00000004 (0000ms, 0406ms total)
T5A2C 002:277 JLINK_Go() -- CPU_ReadMem(4 bytes @ 0xE0001000) (0006ms, 0412ms total)
T5A2C 002:283 JLINK_IsHalted() -- CPU_ReadMem(2 bytes @ 0x20000000)  returns TRUE (0005ms, 0417ms total)
T5A2C 002:288 JLINK_ReadReg(R15 (PC))  returns 0x20000000 (0000ms, 0412ms total)
T5A2C 002:288 JLINK_ClrBPEx(BPHandle = 0x00000004)  returns 0x00 (0000ms, 0412ms total)
T5A2C 002:288 JLINK_ReadReg(R0)  returns 0x00000000 (0000ms, 0412ms total)
T5A2C 002:344 JLINK_WriteMem(0x20000000, 0x0180 Bytes, ...) - Data: 00 BE 0A E0 0D 78 2D 06 68 40 08 24 40 00 00 D3 ... -- CPU_WriteMem(384 bytes @ 0x20000000)  returns 0x180 (0004ms, 0416ms total)
T5A2C 002:348 JLINK_WriteReg(R0, 0x08000000)  returns 0x00 (0000ms, 0416ms total)
T5A2C 002:348 JLINK_WriteReg(R1, 0x00B71B00)  returns 0x00 (0000ms, 0416ms total)
T5A2C 002:348 JLINK_WriteReg(R2, 0x00000002)  returns 0x00 (0000ms, 0416ms total)
T5A2C 002:348 JLINK_WriteReg(R3, 0x00000000)  returns 0x00 (0000ms, 0416ms total)
T5A2C 002:348 JLINK_WriteReg(R4, 0x00000000)  returns 0x00 (0000ms, 0416ms total)
T5A2C 002:348 JLINK_WriteReg(R5, 0x00000000)  returns 0x00 (0000ms, 0416ms total)
T5A2C 002:348 JLINK_WriteReg(R6, 0x00000000)  returns 0x00 (0000ms, 0416ms total)
T5A2C 002:348 JLINK_WriteReg(R7, 0x00000000)  returns 0x00 (0000ms, 0416ms total)
T5A2C 002:348 JLINK_WriteReg(R8, 0x00000000)  returns 0x00 (0000ms, 0416ms total)
T5A2C 002:348 JLINK_WriteReg(R9, 0x2000017C)  returns 0x00 (0000ms, 0416ms total)
T5A2C 002:348 JLINK_WriteReg(R10, 0x00000000)  returns 0x00 (0001ms, 0417ms total)
T5A2C 002:349 JLINK_WriteReg(R11, 0x00000000)  returns 0x00 (0000ms, 0417ms total)
T5A2C 002:349 JLINK_WriteReg(R12, 0x00000000)  returns 0x00 (0000ms, 0417ms total)
T5A2C 002:349 JLINK_WriteReg(R13 (SP), 0x20001000)  returns 0x00 (0000ms, 0417ms total)
T5A2C 002:349 JLINK_WriteReg(R14, 0x20000001)  returns 0x00 (0000ms, 0417ms total)
T5A2C 002:349 JLINK_WriteReg(R15 (PC), 0x20000054)  returns 0x00 (0000ms, 0417ms total)
T5A2C 002:349 JLINK_WriteReg(XPSR, 0x01000000)  returns 0x00 (0000ms, 0417ms total)
T5A2C 002:349 JLINK_WriteReg(MSP, 0x20001000)  returns 0x00 (0000ms, 0417ms total)
T5A2C 002:349 JLINK_WriteReg(PSP, 0x20001000)  returns 0x00 (0000ms, 0417ms total)
T5A2C 002:349 JLINK_WriteReg(CFBP, 0x00000000)  returns 0x00 (0000ms, 0417ms total)
T5A2C 002:349 JLINK_SetBPEx(Addr = 0x20000000, Type = 0xFFFFFFF2) -- CPU_ReadMem(2 bytes @ 0x20000000)  returns 0x00000005 (0000ms, 0417ms total)
T5A2C 002:349 JLINK_Go() -- CPU_WriteMem(2 bytes @ 0x20000000) -- CPU_ReadMem(4 bytes @ 0xE0001000) (0006ms, 0423ms total)
T5A2C 002:355 JLINK_IsHalted() -- CPU_ReadMem(2 bytes @ 0x20000000)  returns TRUE (0006ms, 0429ms total)
T5A2C 002:361 JLINK_ReadReg(R15 (PC))  returns 0x20000000 (0000ms, 0423ms total)
T5A2C 002:361 JLINK_ClrBPEx(BPHandle = 0x00000005)  returns 0x00 (0000ms, 0423ms total)
T5A2C 002:361 JLINK_ReadReg(R0)  returns 0x00000000 (0000ms, 0423ms total)
T5A2C 002:362 JLINK_WriteMem(0x20000180, 0x0280 Bytes, ...) - Data: 30 08 00 20 9D 01 00 08 D1 05 00 08 7D 03 00 08 ... -- CPU_WriteMem(640 bytes @ 0x20000180)  returns 0x280 (0006ms, 0429ms total)
T5A2C 002:369 JLINK_WriteMem(0x20000400, 0x0180 Bytes, ...) - Data: C2 FF 00 BF EC E7 00 00 00 00 00 20 40 42 0F 00 ... -- CPU_WriteMem(384 bytes @ 0x20000400)  returns 0x180 (0004ms, 0433ms total)
T5A2C 002:373 JLINK_WriteReg(R0, 0x08000000)  returns 0x00 (0000ms, 0433ms total)
T5A2C 002:373 JLINK_WriteReg(R1, 0x00000400)  returns 0x00 (0000ms, 0433ms total)
T5A2C 002:373 JLINK_WriteReg(R2, 0x20000180)  returns 0x00 (0000ms, 0433ms total)
T5A2C 002:373 JLINK_WriteReg(R3, 0x00000000)  returns 0x00 (0000ms, 0433ms total)
T5A2C 002:373 JLINK_WriteReg(R4, 0x00000000)  returns 0x00 (0000ms, 0433ms total)
T5A2C 002:373 JLINK_WriteReg(R5, 0x00000000)  returns 0x00 (0000ms, 0433ms total)
T5A2C 002:373 JLINK_WriteReg(R6, 0x00000000)  returns 0x00 (0000ms, 0433ms total)
T5A2C 002:373 JLINK_WriteReg(R7, 0x00000000)  returns 0x00 (0000ms, 0433ms total)
T5A2C 002:373 JLINK_WriteReg(R8, 0x00000000)  returns 0x00 (0000ms, 0433ms total)
T5A2C 002:373 JLINK_WriteReg(R9, 0x2000017C)  returns 0x00 (0000ms, 0433ms total)
T5A2C 002:373 JLINK_WriteReg(R10, 0x00000000)  returns 0x00 (0000ms, 0433ms total)
T5A2C 002:373 JLINK_WriteReg(R11, 0x00000000)  returns 0x00 (0000ms, 0433ms total)
T5A2C 002:373 JLINK_WriteReg(R12, 0x00000000)  returns 0x00 (0000ms, 0433ms total)
T5A2C 002:373 JLINK_WriteReg(R13 (SP), 0x20001000)  returns 0x00 (0000ms, 0433ms total)
T5A2C 002:373 JLINK_WriteReg(R14, 0x20000001)  returns 0x00 (0000ms, 0433ms total)
T5A2C 002:373 JLINK_WriteReg(R15 (PC), 0x20000108)  returns 0x00 (0000ms, 0433ms total)
T5A2C 002:373 JLINK_WriteReg(XPSR, 0x01000000)  returns 0x00 (0001ms, 0434ms total)
T5A2C 002:374 JLINK_WriteReg(MSP, 0x20001000)  returns 0x00 (0000ms, 0434ms total)
T5A2C 002:374 JLINK_WriteReg(PSP, 0x20001000)  returns 0x00 (0000ms, 0434ms total)
T5A2C 002:374 JLINK_WriteReg(CFBP, 0x00000000)  returns 0x00 (0000ms, 0434ms total)
T5A2C 002:374 JLINK_SetBPEx(Addr = 0x20000000, Type = 0xFFFFFFF2)  returns 0x00000006 (0000ms, 0434ms total)
T5A2C 002:374 JLINK_Go() -- CPU_ReadMem(4 bytes @ 0xE0001000) (0005ms, 0439ms total)
T5A2C 002:379 JLINK_IsHalted()  returns FALSE (0001ms, 0440ms total)
T5A2C 002:384 JLINK_IsHalted() -- CPU_ReadMem(2 bytes @ 0x20000000)  returns TRUE (0006ms, 0445ms total)
T5A2C 002:390 JLINK_ReadReg(R15 (PC))  returns 0x20000000 (0000ms, 0439ms total)
T5A2C 002:390 JLINK_ClrBPEx(BPHandle = 0x00000006)  returns 0x00 (0000ms, 0439ms total)
T5A2C 002:390 JLINK_ReadReg(R0)  returns 0x00000000 (0000ms, 0439ms total)
T5A2C 002:391 JLINK_WriteMem(0x20000180, 0x0280 Bytes, ...) - Data: 18 E0 0E 48 84 42 09 D1 01 21 88 05 00 F0 38 FF ... -- CPU_WriteMem(640 bytes @ 0x20000180)  returns 0x280 (0007ms, 0446ms total)
T5A2C 002:398 JLINK_WriteMem(0x20000400, 0x0180 Bytes, ...) - Data: 81 42 C3 DC BD E8 F0 83 2C 00 00 20 2D E9 FF 4F ... -- CPU_WriteMem(384 bytes @ 0x20000400)  returns 0x180 (0004ms, 0450ms total)
T5A2C 002:402 JLINK_WriteReg(R0, 0x08000400)  returns 0x00 (0000ms, 0450ms total)
T5A2C 002:402 JLINK_WriteReg(R1, 0x00000400)  returns 0x00 (0000ms, 0450ms total)
T5A2C 002:402 JLINK_WriteReg(R2, 0x20000180)  returns 0x00 (0000ms, 0450ms total)
T5A2C 002:402 JLINK_WriteReg(R3, 0x00000000)  returns 0x00 (0000ms, 0450ms total)
T5A2C 002:402 JLINK_WriteReg(R4, 0x00000000)  returns 0x00 (0000ms, 0450ms total)
T5A2C 002:402 JLINK_WriteReg(R5, 0x00000000)  returns 0x00 (0000ms, 0450ms total)
T5A2C 002:402 JLINK_WriteReg(R6, 0x00000000)  returns 0x00 (0000ms, 0450ms total)
T5A2C 002:402 JLINK_WriteReg(R7, 0x00000000)  returns 0x00 (0000ms, 0450ms total)
T5A2C 002:402 JLINK_WriteReg(R8, 0x00000000)  returns 0x00 (0000ms, 0450ms total)
T5A2C 002:402 JLINK_WriteReg(R9, 0x2000017C)  returns 0x00 (0000ms, 0450ms total)
T5A2C 002:402 JLINK_WriteReg(R10, 0x00000000)  returns 0x00 (0000ms, 0450ms total)
T5A2C 002:402 JLINK_WriteReg(R11, 0x00000000)  returns 0x00 (0000ms, 0450ms total)
T5A2C 002:402 JLINK_WriteReg(R12, 0x00000000)  returns 0x00 (0000ms, 0450ms total)
T5A2C 002:402 JLINK_WriteReg(R13 (SP), 0x20001000)  returns 0x00 (0000ms, 0450ms total)
T5A2C 002:402 JLINK_WriteReg(R14, 0x20000001)  returns 0x00 (0000ms, 0450ms total)
T5A2C 002:402 JLINK_WriteReg(R15 (PC), 0x20000108)  returns 0x00 (0000ms, 0450ms total)
T5A2C 002:402 JLINK_WriteReg(XPSR, 0x01000000)  returns 0x00 (0000ms, 0450ms total)
T5A2C 002:402 JLINK_WriteReg(MSP, 0x20001000)  returns 0x00 (0000ms, 0450ms total)
T5A2C 002:402 JLINK_WriteReg(PSP, 0x20001000)  returns 0x00 (0000ms, 0450ms total)
T5A2C 002:402 JLINK_WriteReg(CFBP, 0x00000000)  returns 0x00 (0000ms, 0450ms total)
T5A2C 002:402 JLINK_SetBPEx(Addr = 0x20000000, Type = 0xFFFFFFF2)  returns 0x00000007 (0000ms, 0450ms total)
T5A2C 002:402 JLINK_Go() -- CPU_ReadMem(4 bytes @ 0xE0001000) (0006ms, 0456ms total)
T5A2C 002:408 JLINK_IsHalted()  returns FALSE (0000ms, 0456ms total)
T5A2C 002:410 JLINK_IsHalted()  returns FALSE (0000ms, 0456ms total)
T5A2C 002:412 JLINK_IsHalted() -- CPU_ReadMem(2 bytes @ 0x20000000)  returns TRUE (0005ms, 0461ms total)
T5A2C 002:417 JLINK_ReadReg(R15 (PC))  returns 0x20000000 (0000ms, 0456ms total)
T5A2C 002:417 JLINK_ClrBPEx(BPHandle = 0x00000007)  returns 0x00 (0000ms, 0456ms total)
T5A2C 002:417 JLINK_ReadReg(R0)  returns 0x00000000 (0000ms, 0456ms total)
T5A2C 002:418 JLINK_WriteMem(0x20000180, 0x0280 Bytes, ...) - Data: F0 8F 00 00 70 B5 03 46 00 2B 20 DB 7F 2B 1E DC ... -- CPU_WriteMem(640 bytes @ 0x20000180)  returns 0x280 (0006ms, 0462ms total)
T5A2C 002:425 JLINK_WriteMem(0x20000400, 0x0180 Bytes, ...) - Data: 9E FC 08 48 20 40 18 B1 06 49 03 48 FF F7 97 FC ... -- CPU_WriteMem(384 bytes @ 0x20000400)  returns 0x180 (0004ms, 0466ms total)
T5A2C 002:429 JLINK_WriteReg(R0, 0x08000800)  returns 0x00 (0000ms, 0466ms total)
T5A2C 002:429 JLINK_WriteReg(R1, 0x00000400)  returns 0x00 (0000ms, 0466ms total)
T5A2C 002:429 JLINK_WriteReg(R2, 0x20000180)  returns 0x00 (0000ms, 0466ms total)
T5A2C 002:429 JLINK_WriteReg(R3, 0x00000000)  returns 0x00 (0000ms, 0466ms total)
T5A2C 002:429 JLINK_WriteReg(R4, 0x00000000)  returns 0x00 (0000ms, 0466ms total)
T5A2C 002:429 JLINK_WriteReg(R5, 0x00000000)  returns 0x00 (0000ms, 0466ms total)
T5A2C 002:429 JLINK_WriteReg(R6, 0x00000000)  returns 0x00 (0000ms, 0466ms total)
T5A2C 002:429 JLINK_WriteReg(R7, 0x00000000)  returns 0x00 (0000ms, 0466ms total)
T5A2C 002:429 JLINK_WriteReg(R8, 0x00000000)  returns 0x00 (0000ms, 0466ms total)
T5A2C 002:429 JLINK_WriteReg(R9, 0x2000017C)  returns 0x00 (0000ms, 0466ms total)
T5A2C 002:429 JLINK_WriteReg(R10, 0x00000000)  returns 0x00 (0000ms, 0466ms total)
T5A2C 002:429 JLINK_WriteReg(R11, 0x00000000)  returns 0x00 (0000ms, 0466ms total)
T5A2C 002:429 JLINK_WriteReg(R12, 0x00000000)  returns 0x00 (0000ms, 0466ms total)
T5A2C 002:429 JLINK_WriteReg(R13 (SP), 0x20001000)  returns 0x00 (0000ms, 0466ms total)
T5A2C 002:429 JLINK_WriteReg(R14, 0x20000001)  returns 0x00 (0000ms, 0466ms total)
T5A2C 002:429 JLINK_WriteReg(R15 (PC), 0x20000108)  returns 0x00 (0000ms, 0466ms total)
T5A2C 002:429 JLINK_WriteReg(XPSR, 0x01000000)  returns 0x00 (0000ms, 0466ms total)
T5A2C 002:429 JLINK_WriteReg(MSP, 0x20001000)  returns 0x00 (0000ms, 0466ms total)
T5A2C 002:429 JLINK_WriteReg(PSP, 0x20001000)  returns 0x00 (0000ms, 0466ms total)
T5A2C 002:429 JLINK_WriteReg(CFBP, 0x00000000)  returns 0x00 (0000ms, 0466ms total)
T5A2C 002:429 JLINK_SetBPEx(Addr = 0x20000000, Type = 0xFFFFFFF2)  returns 0x00000008 (0000ms, 0466ms total)
T5A2C 002:429 JLINK_Go() -- CPU_ReadMem(4 bytes @ 0xE0001000) (0006ms, 0472ms total)
T5A2C 002:435 JLINK_IsHalted()  returns FALSE (0001ms, 0473ms total)
T5A2C 002:438 JLINK_IsHalted()  returns FALSE (0000ms, 0472ms total)
T5A2C 002:440 JLINK_IsHalted() -- CPU_ReadMem(2 bytes @ 0x20000000)  returns TRUE (0006ms, 0478ms total)
T5A2C 002:446 JLINK_ReadReg(R15 (PC))  returns 0x20000000 (0000ms, 0472ms total)
T5A2C 002:446 JLINK_ClrBPEx(BPHandle = 0x00000008)  returns 0x00 (0000ms, 0472ms total)
T5A2C 002:446 JLINK_ReadReg(R0)  returns 0x00000000 (0000ms, 0472ms total)
T5A2C 002:446 JLINK_WriteMem(0x20000180, 0x0280 Bytes, ...) - Data: 14 00 00 20 18 00 00 20 00 58 00 40 70 B5 04 46 ... -- CPU_WriteMem(640 bytes @ 0x20000180)  returns 0x280 (0007ms, 0479ms total)
T5A2C 002:453 JLINK_WriteMem(0x20000400, 0x0180 Bytes, ...) - Data: 05 00 7F 28 4E DC 30 46 F1 17 06 EB 51 71 C9 10 ... -- CPU_WriteMem(384 bytes @ 0x20000400)  returns 0x180 (0005ms, 0484ms total)
T5A2C 002:458 JLINK_WriteReg(R0, 0x08000C00)  returns 0x00 (0000ms, 0484ms total)
T5A2C 002:458 JLINK_WriteReg(R1, 0x00000400)  returns 0x00 (0000ms, 0484ms total)
T5A2C 002:458 JLINK_WriteReg(R2, 0x20000180)  returns 0x00 (0000ms, 0484ms total)
T5A2C 002:458 JLINK_WriteReg(R3, 0x00000000)  returns 0x00 (0000ms, 0484ms total)
T5A2C 002:458 JLINK_WriteReg(R4, 0x00000000)  returns 0x00 (0000ms, 0484ms total)
T5A2C 002:458 JLINK_WriteReg(R5, 0x00000000)  returns 0x00 (0000ms, 0484ms total)
T5A2C 002:458 JLINK_WriteReg(R6, 0x00000000)  returns 0x00 (0000ms, 0484ms total)
T5A2C 002:458 JLINK_WriteReg(R7, 0x00000000)  returns 0x00 (0000ms, 0484ms total)
T5A2C 002:458 JLINK_WriteReg(R8, 0x00000000)  returns 0x00 (0000ms, 0484ms total)
T5A2C 002:458 JLINK_WriteReg(R9, 0x2000017C)  returns 0x00 (0000ms, 0484ms total)
T5A2C 002:458 JLINK_WriteReg(R10, 0x00000000)  returns 0x00 (0000ms, 0484ms total)
T5A2C 002:458 JLINK_WriteReg(R11, 0x00000000)  returns 0x00 (0000ms, 0484ms total)
T5A2C 002:458 JLINK_WriteReg(R12, 0x00000000)  returns 0x00 (0000ms, 0484ms total)
T5A2C 002:458 JLINK_WriteReg(R13 (SP), 0x20001000)  returns 0x00 (0000ms, 0484ms total)
T5A2C 002:458 JLINK_WriteReg(R14, 0x20000001)  returns 0x00 (0000ms, 0484ms total)
T5A2C 002:458 JLINK_WriteReg(R15 (PC), 0x20000108)  returns 0x00 (0000ms, 0484ms total)
T5A2C 002:458 JLINK_WriteReg(XPSR, 0x01000000)  returns 0x00 (0000ms, 0484ms total)
T5A2C 002:458 JLINK_WriteReg(MSP, 0x20001000)  returns 0x00 (0000ms, 0484ms total)
T5A2C 002:458 JLINK_WriteReg(PSP, 0x20001000)  returns 0x00 (0000ms, 0484ms total)
T5A2C 002:458 JLINK_WriteReg(CFBP, 0x00000000)  returns 0x00 (0000ms, 0484ms total)
T5A2C 002:458 JLINK_SetBPEx(Addr = 0x20000000, Type = 0xFFFFFFF2)  returns 0x00000009 (0000ms, 0484ms total)
T5A2C 002:458 JLINK_Go() -- CPU_ReadMem(4 bytes @ 0xE0001000) (0006ms, 0490ms total)
T5A2C 002:464 JLINK_IsHalted()  returns FALSE (0000ms, 0490ms total)
T5A2C 002:466 JLINK_IsHalted()  returns FALSE (0000ms, 0490ms total)
T5A2C 002:468 JLINK_IsHalted() -- CPU_ReadMem(2 bytes @ 0x20000000)  returns TRUE (0005ms, 0495ms total)
T5A2C 002:473 JLINK_ReadReg(R15 (PC))  returns 0x20000000 (0000ms, 0490ms total)
T5A2C 002:473 JLINK_ClrBPEx(BPHandle = 0x00000009)  returns 0x00 (0000ms, 0490ms total)
T5A2C 002:473 JLINK_ReadReg(R0)  returns 0x00000000 (0000ms, 0490ms total)
T5A2C 002:473 JLINK_WriteMem(0x20000180, 0x0280 Bytes, ...) - Data: F0 28 26 D1 4F F0 04 0B 28 46 69 1C 8D B2 20 5C ... -- CPU_WriteMem(640 bytes @ 0x20000180)  returns 0x280 (0008ms, 0498ms total)
T5A2C 002:481 JLINK_WriteMem(0x20000400, 0x0180 Bytes, ...) - Data: 29 B1 06 4A 12 68 02 43 04 4B 1A 60 04 E0 03 4A ... -- CPU_WriteMem(384 bytes @ 0x20000400)  returns 0x180 (0005ms, 0503ms total)
T5A2C 002:486 JLINK_WriteReg(R0, 0x08001000)  returns 0x00 (0000ms, 0503ms total)
T5A2C 002:486 JLINK_WriteReg(R1, 0x00000400)  returns 0x00 (0000ms, 0503ms total)
T5A2C 002:486 JLINK_WriteReg(R2, 0x20000180)  returns 0x00 (0000ms, 0503ms total)
T5A2C 002:486 JLINK_WriteReg(R3, 0x00000000)  returns 0x00 (0000ms, 0503ms total)
T5A2C 002:486 JLINK_WriteReg(R4, 0x00000000)  returns 0x00 (0000ms, 0503ms total)
T5A2C 002:486 JLINK_WriteReg(R5, 0x00000000)  returns 0x00 (0000ms, 0503ms total)
T5A2C 002:486 JLINK_WriteReg(R6, 0x00000000)  returns 0x00 (0000ms, 0503ms total)
T5A2C 002:486 JLINK_WriteReg(R7, 0x00000000)  returns 0x00 (0000ms, 0503ms total)
T5A2C 002:486 JLINK_WriteReg(R8, 0x00000000)  returns 0x00 (0000ms, 0503ms total)
T5A2C 002:486 JLINK_WriteReg(R9, 0x2000017C)  returns 0x00 (0000ms, 0503ms total)
T5A2C 002:486 JLINK_WriteReg(R10, 0x00000000)  returns 0x00 (0000ms, 0503ms total)
T5A2C 002:486 JLINK_WriteReg(R11, 0x00000000)  returns 0x00 (0000ms, 0503ms total)
T5A2C 002:486 JLINK_WriteReg(R12, 0x00000000)  returns 0x00 (0000ms, 0503ms total)
T5A2C 002:486 JLINK_WriteReg(R13 (SP), 0x20001000)  returns 0x00 (0000ms, 0503ms total)
T5A2C 002:486 JLINK_WriteReg(R14, 0x20000001)  returns 0x00 (0000ms, 0503ms total)
T5A2C 002:486 JLINK_WriteReg(R15 (PC), 0x20000108)  returns 0x00 (0000ms, 0503ms total)
T5A2C 002:486 JLINK_WriteReg(XPSR, 0x01000000)  returns 0x00 (0000ms, 0503ms total)
T5A2C 002:486 JLINK_WriteReg(MSP, 0x20001000)  returns 0x00 (0000ms, 0503ms total)
T5A2C 002:486 JLINK_WriteReg(PSP, 0x20001000)  returns 0x00 (0000ms, 0503ms total)
T5A2C 002:486 JLINK_WriteReg(CFBP, 0x00000000)  returns 0x00 (0000ms, 0503ms total)
T5A2C 002:486 JLINK_SetBPEx(Addr = 0x20000000, Type = 0xFFFFFFF2)  returns 0x0000000A (0000ms, 0503ms total)
T5A2C 002:486 JLINK_Go() -- CPU_ReadMem(4 bytes @ 0xE0001000) (0006ms, 0509ms total)
T5A2C 002:492 JLINK_IsHalted()  returns FALSE (0000ms, 0509ms total)
T5A2C 002:494 JLINK_IsHalted()  returns FALSE (0000ms, 0509ms total)
T5A2C 002:496 JLINK_IsHalted()  returns FALSE (0000ms, 0509ms total)
T5A2C 002:498 JLINK_IsHalted() -- CPU_ReadMem(2 bytes @ 0x20000000)  returns TRUE (0005ms, 0514ms total)
T5A2C 002:503 JLINK_ReadReg(R15 (PC))  returns 0x20000000 (0000ms, 0509ms total)
T5A2C 002:503 JLINK_ClrBPEx(BPHandle = 0x0000000A)  returns 0x00 (0000ms, 0509ms total)
T5A2C 002:503 JLINK_ReadReg(R0)  returns 0x00000000 (0000ms, 0509ms total)
T5A2C 002:503 JLINK_WriteMem(0x20000180, 0x0280 Bytes, ...) - Data: 08 46 00 68 40 F4 00 40 08 60 08 46 00 68 40 F4 ... -- CPU_WriteMem(640 bytes @ 0x20000180)  returns 0x280 (0007ms, 0516ms total)
T5A2C 002:511 JLINK_WriteMem(0x20000400, 0x0180 Bytes, ...) - Data: 00 00 C0 20 10 F8 00 00 00 07 04 24 24 3F 24 00 ... -- CPU_WriteMem(384 bytes @ 0x20000400)  returns 0x180 (0004ms, 0520ms total)
T5A2C 002:515 JLINK_WriteReg(R0, 0x08001400)  returns 0x00 (0000ms, 0520ms total)
T5A2C 002:515 JLINK_WriteReg(R1, 0x00000400)  returns 0x00 (0000ms, 0520ms total)
T5A2C 002:515 JLINK_WriteReg(R2, 0x20000180)  returns 0x00 (0000ms, 0520ms total)
T5A2C 002:515 JLINK_WriteReg(R3, 0x00000000)  returns 0x00 (0000ms, 0520ms total)
T5A2C 002:515 JLINK_WriteReg(R4, 0x00000000)  returns 0x00 (0000ms, 0520ms total)
T5A2C 002:515 JLINK_WriteReg(R5, 0x00000000)  returns 0x00 (0000ms, 0520ms total)
T5A2C 002:515 JLINK_WriteReg(R6, 0x00000000)  returns 0x00 (0000ms, 0520ms total)
T5A2C 002:515 JLINK_WriteReg(R7, 0x00000000)  returns 0x00 (0000ms, 0520ms total)
T5A2C 002:515 JLINK_WriteReg(R8, 0x00000000)  returns 0x00 (0000ms, 0520ms total)
T5A2C 002:515 JLINK_WriteReg(R9, 0x2000017C)  returns 0x00 (0000ms, 0520ms total)
T5A2C 002:515 JLINK_WriteReg(R10, 0x00000000)  returns 0x00 (0000ms, 0520ms total)
T5A2C 002:515 JLINK_WriteReg(R11, 0x00000000)  returns 0x00 (0000ms, 0520ms total)
T5A2C 002:515 JLINK_WriteReg(R12, 0x00000000)  returns 0x00 (0000ms, 0520ms total)
T5A2C 002:515 JLINK_WriteReg(R13 (SP), 0x20001000)  returns 0x00 (0000ms, 0520ms total)
T5A2C 002:515 JLINK_WriteReg(R14, 0x20000001)  returns 0x00 (0000ms, 0520ms total)
T5A2C 002:515 JLINK_WriteReg(R15 (PC), 0x20000108)  returns 0x00 (0000ms, 0520ms total)
T5A2C 002:515 JLINK_WriteReg(XPSR, 0x01000000)  returns 0x00 (0000ms, 0520ms total)
T5A2C 002:515 JLINK_WriteReg(MSP, 0x20001000)  returns 0x00 (0000ms, 0520ms total)
T5A2C 002:515 JLINK_WriteReg(PSP, 0x20001000)  returns 0x00 (0000ms, 0520ms total)
T5A2C 002:515 JLINK_WriteReg(CFBP, 0x00000000)  returns 0x00 (0000ms, 0520ms total)
T5A2C 002:515 JLINK_SetBPEx(Addr = 0x20000000, Type = 0xFFFFFFF2)  returns 0x0000000B (0000ms, 0520ms total)
T5A2C 002:515 JLINK_Go() -- CPU_ReadMem(4 bytes @ 0xE0001000) (0006ms, 0526ms total)
T5A2C 002:521 JLINK_IsHalted()  returns FALSE (0001ms, 0527ms total)
T5A2C 002:526 JLINK_IsHalted() -- CPU_ReadMem(2 bytes @ 0x20000000)  returns TRUE (0004ms, 0530ms total)
T5A2C 002:530 JLINK_ReadReg(R15 (PC))  returns 0x20000000 (0000ms, 0526ms total)
T5A2C 002:530 JLINK_ClrBPEx(BPHandle = 0x0000000B)  returns 0x00 (0000ms, 0526ms total)
T5A2C 002:530 JLINK_ReadReg(R0)  returns 0x00000000 (0000ms, 0526ms total)
T5A2C 002:531 JLINK_WriteMem(0x20000180, 0x0280 Bytes, ...) - Data: 08 F8 08 00 00 00 00 00 20 3F 20 20 20 20 30 00 ... -- CPU_WriteMem(640 bytes @ 0x20000180)  returns 0x280 (0007ms, 0533ms total)
T5A2C 002:539 JLINK_WriteMem(0x20000400, 0x0180 Bytes, ...) - Data: 00 80 80 E0 80 80 00 00 00 00 00 1F 20 20 00 00 ... -- CPU_WriteMem(384 bytes @ 0x20000400)  returns 0x180 (0004ms, 0537ms total)
T5A2C 002:543 JLINK_WriteReg(R0, 0x08001800)  returns 0x00 (0000ms, 0537ms total)
T5A2C 002:543 JLINK_WriteReg(R1, 0x00000400)  returns 0x00 (0000ms, 0537ms total)
T5A2C 002:543 JLINK_WriteReg(R2, 0x20000180)  returns 0x00 (0000ms, 0537ms total)
T5A2C 002:543 JLINK_WriteReg(R3, 0x00000000)  returns 0x00 (0000ms, 0537ms total)
T5A2C 002:543 JLINK_WriteReg(R4, 0x00000000)  returns 0x00 (0000ms, 0537ms total)
T5A2C 002:543 JLINK_WriteReg(R5, 0x00000000)  returns 0x00 (0000ms, 0537ms total)
T5A2C 002:543 JLINK_WriteReg(R6, 0x00000000)  returns 0x00 (0000ms, 0537ms total)
T5A2C 002:543 JLINK_WriteReg(R7, 0x00000000)  returns 0x00 (0000ms, 0537ms total)
T5A2C 002:543 JLINK_WriteReg(R8, 0x00000000)  returns 0x00 (0000ms, 0537ms total)
T5A2C 002:543 JLINK_WriteReg(R9, 0x2000017C)  returns 0x00 (0000ms, 0537ms total)
T5A2C 002:543 JLINK_WriteReg(R10, 0x00000000)  returns 0x00 (0000ms, 0537ms total)
T5A2C 002:543 JLINK_WriteReg(R11, 0x00000000)  returns 0x00 (0000ms, 0537ms total)
T5A2C 002:543 JLINK_WriteReg(R12, 0x00000000)  returns 0x00 (0000ms, 0537ms total)
T5A2C 002:543 JLINK_WriteReg(R13 (SP), 0x20001000)  returns 0x00 (0000ms, 0537ms total)
T5A2C 002:543 JLINK_WriteReg(R14, 0x20000001)  returns 0x00 (0000ms, 0537ms total)
T5A2C 002:543 JLINK_WriteReg(R15 (PC), 0x20000108)  returns 0x00 (0000ms, 0537ms total)
T5A2C 002:543 JLINK_WriteReg(XPSR, 0x01000000)  returns 0x00 (0000ms, 0537ms total)
T5A2C 002:543 JLINK_WriteReg(MSP, 0x20001000)  returns 0x00 (0000ms, 0537ms total)
T5A2C 002:543 JLINK_WriteReg(PSP, 0x20001000)  returns 0x00 (0000ms, 0537ms total)
T5A2C 002:543 JLINK_WriteReg(CFBP, 0x00000000)  returns 0x00 (0000ms, 0537ms total)
T5A2C 002:543 JLINK_SetBPEx(Addr = 0x20000000, Type = 0xFFFFFFF2)  returns 0x0000000C (0000ms, 0537ms total)
T5A2C 002:543 JLINK_Go() -- CPU_ReadMem(4 bytes @ 0xE0001000) (0006ms, 0543ms total)
T5A2C 002:549 JLINK_IsHalted()  returns FALSE (0000ms, 0543ms total)
T5A2C 002:553 JLINK_IsHalted() -- CPU_ReadMem(2 bytes @ 0x20000000)  returns TRUE (0006ms, 0549ms total)
T5A2C 002:559 JLINK_ReadReg(R15 (PC))  returns 0x20000000 (0000ms, 0543ms total)
T5A2C 002:559 JLINK_ClrBPEx(BPHandle = 0x0000000C)  returns 0x00 (0000ms, 0543ms total)
T5A2C 002:559 JLINK_ReadReg(R0)  returns 0x00000000 (0000ms, 0543ms total)
T5A2C 002:559 JLINK_WriteMem(0x20000180, 0x0280 Bytes, ...) - Data: 49 36 00 3E 41 41 41 22 00 7F 41 41 22 1C 00 7F ... -- CPU_WriteMem(640 bytes @ 0x20000180)  returns 0x280 (0008ms, 0551ms total)
T5A2C 002:567 JLINK_WriteMem(0x20000400, 0x0180 Bytes, ...) - Data: 80 80 9F 88 84 82 81 9F 80 80 80 80 FF 00 00 00 ... -- CPU_WriteMem(384 bytes @ 0x20000400)  returns 0x180 (0004ms, 0555ms total)
T5A2C 002:571 JLINK_WriteReg(R0, 0x08001C00)  returns 0x00 (0000ms, 0555ms total)
T5A2C 002:571 JLINK_WriteReg(R1, 0x000002DC)  returns 0x00 (0000ms, 0555ms total)
T5A2C 002:571 JLINK_WriteReg(R2, 0x20000180)  returns 0x00 (0000ms, 0555ms total)
T5A2C 002:571 JLINK_WriteReg(R3, 0x00000000)  returns 0x00 (0000ms, 0555ms total)
T5A2C 002:571 JLINK_WriteReg(R4, 0x00000000)  returns 0x00 (0000ms, 0555ms total)
T5A2C 002:571 JLINK_WriteReg(R5, 0x00000000)  returns 0x00 (0000ms, 0555ms total)
T5A2C 002:571 JLINK_WriteReg(R6, 0x00000000)  returns 0x00 (0000ms, 0555ms total)
T5A2C 002:571 JLINK_WriteReg(R7, 0x00000000)  returns 0x00 (0000ms, 0555ms total)
T5A2C 002:571 JLINK_WriteReg(R8, 0x00000000)  returns 0x00 (0000ms, 0555ms total)
T5A2C 002:571 JLINK_WriteReg(R9, 0x2000017C)  returns 0x00 (0000ms, 0555ms total)
T5A2C 002:571 JLINK_WriteReg(R10, 0x00000000)  returns 0x00 (0000ms, 0555ms total)
T5A2C 002:571 JLINK_WriteReg(R11, 0x00000000)  returns 0x00 (0000ms, 0555ms total)
T5A2C 002:571 JLINK_WriteReg(R12, 0x00000000)  returns 0x00 (0000ms, 0555ms total)
T5A2C 002:571 JLINK_WriteReg(R13 (SP), 0x20001000)  returns 0x00 (0000ms, 0555ms total)
T5A2C 002:571 JLINK_WriteReg(R14, 0x20000001)  returns 0x00 (0000ms, 0555ms total)
T5A2C 002:571 JLINK_WriteReg(R15 (PC), 0x20000108)  returns 0x00 (0000ms, 0555ms total)
